time	V(vout1)	V(u1:n_state)	V(u1:r_hs)	V(u1:tsub)	V(u1:ttherm)	I(u1:B_ir)	I(u1:B_isw)	I(u1:B_ph)	abs(I(u1:L_kinetic))
0.000000000000000e+000	0.000000e+000	0.000000e+000	0.000000e+000	3.000000e+000	0.000000e+000	2.500000e-006	7.920766e-006	0.000000e+000	7.900000e-006
9.937272836012558e-011	-3.447266e-014	0.000000e+000	0.000000e+000	3.000000e+000	-1.332022e-015	2.500000e-006	7.920766e-006	0.000000e+000	7.900000e-006
2.017727283601305e-010	-3.343093e-014	0.000000e+000	0.000000e+000	3.000000e+000	-1.332022e-015	2.500000e-006	7.920766e-006	0.000000e+000	7.900000e-006
3.041727283601170e-010	-3.240232e-014	0.000000e+000	0.000000e+000	3.000000e+000	-1.332022e-015	2.500000e-006	7.920766e-006	0.000000e+000	7.900000e-006
4.065727283600955e-010	-3.134966e-014	0.000000e+000	0.000000e+000	3.000000e+000	-1.332022e-015	2.500000e-006	7.920766e-006	0.000000e+000	7.900000e-006
5.089727283600964e-010	-3.065737e-014	0.000000e+000	0.000000e+000	3.000000e+000	-1.332022e-015	2.500000e-006	7.920766e-006	0.000000e+000	7.900000e-006
6.113727283601278e-010	-2.997868e-014	0.000000e+000	0.000000e+000	3.000000e+000	-1.332022e-015	2.500000e-006	7.920766e-006	0.000000e+000	7.900000e-006
7.137727283601592e-010	-2.929940e-014	0.000000e+000	0.000000e+000	3.000000e+000	-1.332022e-015	2.500000e-006	7.920766e-006	0.000000e+000	7.900000e-006
8.161727283601906e-010	-2.862295e-014	0.000000e+000	0.000000e+000	3.000000e+000	-1.332022e-015	2.500000e-006	7.920766e-006	0.000000e+000	7.900000e-006
9.185727283602220e-010	-2.793587e-014	0.000000e+000	0.000000e+000	3.000000e+000	-1.332022e-015	2.500000e-006	7.920766e-006	0.000000e+000	7.900000e-006
1.020972728360253e-009	-2.725620e-014	0.000000e+000	0.000000e+000	3.000000e+000	-1.332022e-015	2.500000e-006	7.920766e-006	0.000000e+000	7.900000e-006
1.123372728360285e-009	-2.657620e-014	0.000000e+000	0.000000e+000	3.000000e+000	-1.332022e-015	2.500000e-006	7.920766e-006	0.000000e+000	7.900000e-006
1.225772728360316e-009	-2.590661e-014	0.000000e+000	0.000000e+000	3.000000e+000	-1.332022e-015	2.500000e-006	7.920766e-006	0.000000e+000	7.900000e-006
1.328172728360348e-009	-2.522927e-014	0.000000e+000	0.000000e+000	3.000000e+000	-1.332022e-015	2.500000e-006	7.920766e-006	0.000000e+000	7.900000e-006
1.430572728360379e-009	-2.455473e-014	0.000000e+000	0.000000e+000	3.000000e+000	-1.332022e-015	2.500000e-006	7.920766e-006	0.000000e+000	7.900000e-006
1.532972728360411e-009	-2.386240e-014	0.000000e+000	0.000000e+000	3.000000e+000	-1.332022e-015	2.500000e-006	7.920766e-006	0.000000e+000	7.900000e-006
1.635372728360442e-009	-2.319408e-014	0.000000e+000	0.000000e+000	3.000000e+000	-1.332022e-015	2.500000e-006	7.920766e-006	0.000000e+000	7.900000e-006
1.737772728360473e-009	-2.252178e-014	0.000000e+000	0.000000e+000	3.000000e+000	-1.332022e-015	2.500000e-006	7.920766e-006	0.000000e+000	7.900000e-006
1.840172728360505e-009	-2.185321e-014	0.000000e+000	0.000000e+000	3.000000e+000	-1.332022e-015	2.500000e-006	7.920766e-006	0.000000e+000	7.900000e-006
1.942572728360536e-009	-2.116813e-014	0.000000e+000	0.000000e+000	3.000000e+000	-1.332022e-015	2.500000e-006	7.920766e-006	0.000000e+000	7.900000e-006
2.000000000000000e-009	-2.079443e-014	0.000000e+000	0.000000e+000	3.000000e+000	-1.332259e-015	2.500000e-006	7.920766e-006	0.000000e+000	7.900000e-006
2.000000293227206e-009	1.583364e-007	0.000000e+000	0.000000e+000	3.004044e+000	4.043774e-003	2.498892e-006	7.916073e-006	3.757092e-006	7.898417e-006
2.000000879681617e-009	6.646577e-007	0.000000e+000	0.000000e+000	3.027737e+000	2.773725e-002	2.495356e-006	7.901082e-006	1.127128e-005	7.893354e-006
2.000000950345022e-009	7.395828e-007	0.000000e+000	0.000000e+000	3.030812e+000	3.081202e-002	2.494835e-006	7.898867e-006	1.217668e-005	7.892604e-006
2.000000987967646e-009	7.821039e-007	-1.528528e-009	-5.509948e-012	3.032622e+000	3.262186e-002	2.494540e-006	7.897611e-006	1.265873e-005	7.892179e-006
2.000001025590272e-009	8.257525e-007	-2.350293e-009	-8.472194e-012	3.034469e+000	3.446910e-002	2.494238e-006	7.896323e-006	1.314079e-005	7.891743e-006
2.000001063212896e-009	8.705285e-007	-2.465292e-009	-8.886738e-012	3.036354e+000	3.635374e-002	2.493927e-006	7.895001e-006	1.362284e-005	7.891295e-006
2.000001100835522e-009	9.164319e-007	-1.873527e-009	-6.753580e-012	3.038276e+000	3.827579e-002	2.493610e-006	7.893648e-006	1.410490e-005	7.890836e-006
2.000001138458146e-009	9.634627e-007	-5.749981e-010	-2.072719e-012	3.040235e+000	4.023524e-002	2.493284e-006	7.892261e-006	1.458695e-005	7.890366e-006
2.000001176080772e-009	1.011621e-006	1.430296e-009	5.155844e-012	3.042232e+000	4.223209e-002	2.492952e-006	7.890842e-006	1.506901e-005	7.889884e-006
2.000001213703396e-009	1.060907e-006	4.142354e-009	1.493211e-011	3.044266e+000	4.426634e-002	2.492611e-006	7.889390e-006	1.555106e-005	7.889391e-006
2.000013294861227e-009	4.002778e-006	9.897016e-001	4.384729e-003	3.151739e+000	1.517391e-001	2.472812e-006	7.803715e-006	8.993402e-005	7.859972e-006
2.000013548927955e-009	4.332592e-006	1.000000e+000	5.273814e-003	3.175426e+000	1.754265e-001	2.470651e-006	7.794229e-006	8.906341e-005	7.856674e-006
2.000013858213121e-009	5.034592e-006	1.000000e+000	7.307362e-003	3.202589e+000	2.025890e-001	2.466089e-006	7.774115e-006	8.510058e-005	7.849654e-006
2.000014226163416e-009	5.810930e-006	1.000000e+000	9.729785e-003	3.232638e+000	2.326377e-001	2.461107e-006	7.752005e-006	8.038606e-005	7.841891e-006
2.000014841677757e-009	6.983126e-006	1.000000e+000	1.378815e-002	3.276940e+000	2.769398e-001	2.453693e-006	7.718857e-006	7.249953e-005	7.830168e-006
2.000015546434536e-009	8.166287e-006	1.000000e+000	1.844230e-002	3.320362e+000	3.203617e-001	2.446324e-006	7.685654e-006	6.346955e-005	7.818337e-006
2.000016271440817e-009	9.206939e-006	1.000000e+000	2.323768e-002	3.357767e+000	3.577675e-001	2.439942e-006	7.656677e-006	5.418012e-005	7.807930e-006
2.000017009820943e-009	1.008278e-005	1.000000e+000	2.812811e-002	3.388717e+000	3.887171e-001	2.434644e-006	7.632455e-006	4.471933e-005	7.799173e-006
2.000017750126594e-009	1.077514e-005	1.000000e+000	3.303660e-002	3.412867e+000	4.128666e-001	2.430500e-006	7.613416e-006	3.523386e-005	7.792249e-006
2.000018492894997e-009	1.128274e-005	1.000000e+000	3.796546e-002	3.430395e+000	4.303949e-001	2.427488e-006	7.599518e-006	2.571684e-005	7.787173e-006
2.000019234891357e-009	1.162229e-005	1.000000e+000	4.289187e-002	3.441370e+000	4.413704e-001	2.425484e-006	7.590249e-006	1.620971e-005	7.783778e-006
2.000019757289058e-009	1.174309e-005	1.000000e+000	4.636137e-002	3.445896e+000	4.458964e-001	2.424774e-006	7.586957e-006	9.516283e-006	7.782569e-006
2.000020500000000e-009	1.178196e-005	1.000000e+000	5.129473e-002	3.445896e+000	4.458963e-001	2.424545e-006	7.585898e-006	2.314646e-006	7.782181e-006
2.000021203546631e-009	1.178196e-005	1.000000e+000	5.596803e-002	3.445896e+000	4.458961e-001	2.424545e-006	7.585898e-006	3.244463e-016	7.782181e-006
2.004802573141126e-009	1.206799e-005	1.000000e+000	3.182819e+001	3.450188e+000	4.501878e-001	2.423823e-006	7.582731e-006	1.789785e-016	7.779320e-006
2.009583942735621e-009	1.287895e-005	1.000000e+000	6.358330e+001	3.461886e+000	4.618857e-001	2.421813e-006	7.573409e-006	6.655014e-017	7.771211e-006
2.014365312330116e-009	1.421482e-005	1.000000e+000	9.532128e+001	3.480990e+000	4.809901e-001	2.418515e-006	7.557934e-006	-1.283876e-017	7.757852e-006
2.019146681924610e-009	1.607562e-005	1.000000e+000	1.270421e+002	3.507501e+000	5.075007e-001	2.413929e-006	7.536304e-006	-5.918823e-017	7.739244e-006
2.023928051519106e-009	1.846134e-005	1.000000e+000	1.587459e+002	3.541418e+000	5.414178e-001	2.408054e-006	7.508521e-006	-7.249826e-017	7.715387e-006
2.028709421113600e-009	2.137198e-005	1.000000e+000	1.904325e+002	3.582741e+000	5.827412e-001	2.400892e-006	7.474583e-006	-5.276885e-017	7.686280e-006
2.033490790708095e-009	2.480754e-005	1.000000e+000	2.221020e+002	3.631471e+000	6.314709e-001	2.392441e-006	7.434491e-006	0.000000e+000	7.651925e-006
2.037541796503591e-009	2.806261e-005	1.000000e+000	2.488915e+002	3.676075e+000	6.760753e-001	2.384660e-006	7.397074e-006	0.000000e+000	7.619374e-006
2.042585314000201e-009	3.263912e-005	1.000000e+000	2.822297e+002	3.738264e+000	7.382643e-001	2.373792e-006	7.344508e-006	0.000000e+000	7.573609e-006
2.047628831496811e-009	3.763206e-005	1.000000e+000	3.154748e+002	3.803400e+000	8.034003e-001	2.362331e-006	7.288364e-006	0.000000e+000	7.523679e-006
2.052672348993420e-009	4.304145e-005	1.000000e+000	3.486267e+002	3.871484e+000	8.714835e-001	2.350277e-006	7.228642e-006	0.000000e+000	7.469585e-006
2.057715866490029e-009	4.886727e-005	1.000000e+000	3.816855e+002	3.942514e+000	9.425136e-001	2.337632e-006	7.165342e-006	0.000000e+000	7.411327e-006
2.062759383986639e-009	5.510952e-005	1.000000e+000	4.146510e+002	4.016491e+000	1.016491e+000	2.324394e-006	7.098464e-006	0.000000e+000	7.348905e-006
2.067802901483249e-009	6.176822e-005	1.000000e+000	4.475234e+002	4.093415e+000	1.093415e+000	2.310563e-006	7.028007e-006	0.000000e+000	7.282318e-006
2.072846418979858e-009	6.884335e-005	1.000000e+000	4.803026e+002	4.173286e+000	1.173287e+000	2.296141e-006	6.953972e-006	0.000000e+000	7.211567e-006
2.078936025165645e-009	7.783416e-005	1.000000e+000	5.197189e+002	4.270230e+000	1.270230e+000	2.278479e-006	6.862009e-006	0.000000e+000	7.121658e-006
2.085025631351432e-009	8.714831e-005	1.000000e+000	5.588346e+002	4.366326e+000	1.366326e+000	2.260836e-006	6.769368e-006	0.000000e+000	7.028517e-006
2.091115237537220e-009	9.678579e-005	1.000000e+000	5.976496e+002	4.461576e+000	1.461575e+000	2.243214e-006	6.676050e-006	0.000000e+000	6.932142e-006
2.097204843723006e-009	1.067466e-004	1.000000e+000	6.361639e+002	4.555978e+000	1.555978e+000	2.225611e-006	6.582055e-006	0.000000e+000	6.832534e-006
2.103294449908793e-009	1.170308e-004	1.000000e+000	6.743776e+002	4.649533e+000	1.649533e+000	2.208028e-006	6.487383e-006	0.000000e+000	6.729692e-006
2.109384056094580e-009	1.276382e-004	1.000000e+000	7.122906e+002	4.742241e+000	1.742241e+000	2.190464e-006	6.392034e-006	0.000000e+000	6.623618e-006
2.115473662280368e-009	1.385691e-004	1.000000e+000	7.499030e+002	4.834102e+000	1.834102e+000	2.172920e-006	6.296008e-006	0.000000e+000	6.514309e-006
2.115544057844814e-009	1.386956e-004	1.000000e+000	7.503347e+002	4.835139e+000	1.835139e+000	2.172721e-006	6.294918e-006	0.000000e+000	6.513044e-006
2.125561158757868e-009	1.571443e-004	1.000000e+000	8.114835e+002	4.980365e+000	1.980365e+000	2.144588e-006	6.139408e-006	0.000000e+000	6.328557e-006
2.135578259670922e-009	1.758089e-004	1.000000e+000	8.711823e+002	5.118430e+000	2.118430e+000	2.117594e-006	5.989760e-006	0.000000e+000	6.141911e-006
2.145595360583976e-009	1.946892e-004	1.000000e+000	9.294314e+002	5.249335e+000	2.249335e+000	2.091740e-006	5.845972e-006	0.000000e+000	5.953108e-006
2.155612461497030e-009	2.137853e-004	1.000000e+000	9.862306e+002	5.373079e+000	2.373078e+000	2.067025e-006	5.708044e-006	0.000000e+000	5.762147e-006
2.165629562410084e-009	2.330971e-004	1.000000e+000	1.041580e+003	5.489662e+000	2.489661e+000	2.043450e-006	5.575978e-006	0.000000e+000	5.569029e-006
2.175646663323137e-009	2.526247e-004	1.000000e+000	1.095479e+003	5.599084e+000	2.599084e+000	2.021015e-006	5.449772e-006	0.000000e+000	5.373753e-006
2.185663764236191e-009	2.723681e-004	1.000000e+000	1.147929e+003	5.701345e+000	2.701345e+000	1.999720e-006	5.329427e-006	0.000000e+000	5.176319e-006
2.185730925856606e-009	2.724996e-004	1.000000e+000	1.148273e+003	5.702005e+000	2.702005e+000	1.999582e-006	5.328653e-006	0.000000e+000	5.175004e-006
2.195515779764647e-009	2.917355e-004	1.000000e+000	1.197710e+003	5.794151e+000	2.794151e+000	1.980215e-006	5.219670e-006	0.000000e+000	4.982645e-006
2.205300633672688e-009	3.108925e-004	1.000000e+000	1.245136e+003	5.880166e+000	2.880166e+000	1.962035e-006	5.117487e-006	0.000000e+000	4.791075e-006
2.215085487580729e-009	3.299705e-004	1.000000e+000	1.290551e+003	5.960050e+000	2.960051e+000	1.945042e-006	5.022104e-006	0.000000e+000	4.600295e-006
2.224870341488770e-009	3.489696e-004	1.000000e+000	1.333955e+003	6.033804e+000	3.033804e+000	1.929236e-006	4.933521e-006	0.000000e+000	4.410304e-006
2.234655195396811e-009	3.678897e-004	1.000000e+000	1.375348e+003	6.101427e+000	3.101428e+000	1.914617e-006	4.851738e-006	0.000000e+000	4.221103e-006
2.244440049304852e-009	3.867309e-004	1.000000e+000	1.414730e+003	6.162920e+000	3.162920e+000	1.901186e-006	4.776755e-006	0.000000e+000	4.032691e-006
2.254224903212892e-009	4.054931e-004	1.000000e+000	1.452101e+003	6.218282e+000	3.218282e+000	1.888941e-006	4.708572e-006	0.000000e+000	3.845068e-006
2.254293211212900e-009	4.056228e-004	1.000000e+000	1.452353e+003	6.218653e+000	3.218653e+000	1.888859e-006	4.708116e-006	0.000000e+000	3.843772e-006
2.266349872460370e-009	4.286019e-004	1.000000e+000	1.495250e+003	6.279034e+000	3.279034e+000	1.875443e-006	4.633690e-006	0.000000e+000	3.613981e-006
2.278406533707839e-009	4.508674e-004	1.000000e+000	1.534304e+003	6.333297e+000	3.333297e+000	1.863354e-006	4.566706e-006	0.000000e+000	3.391326e-006
2.290463194955309e-009	4.724193e-004	1.000000e+000	1.569513e+003	6.381444e+000	3.381444e+000	1.852591e-006	4.507165e-006	0.000000e+000	3.175807e-006
2.302519856202779e-009	4.932576e-004	1.000000e+000	1.600879e+003	6.423474e+000	3.423474e+000	1.843154e-006	4.455067e-006	0.000000e+000	2.967424e-006
2.314576517450248e-009	5.133824e-004	1.000000e+000	1.628401e+003	6.459387e+000	3.459387e+000	1.835044e-006	4.410411e-006	0.000000e+000	2.766176e-006
2.326633178697718e-009	5.327936e-004	1.000000e+000	1.652078e+003	6.489184e+000	3.489183e+000	1.828261e-006	4.373198e-006	0.000000e+000	2.572064e-006
2.338689839945187e-009	5.514913e-004	1.000000e+000	1.671912e+003	6.512863e+000	3.512863e+000	1.822804e-006	4.343427e-006	0.000000e+000	2.385087e-006
2.338789839945187e-009	5.516395e-004	1.000000e+000	1.672056e+003	6.513053e+000	3.513053e+000	1.822760e-006	4.343188e-006	0.000000e+000	2.383605e-006
2.345070659621314e-009	5.608115e-004	1.000000e+000	1.680659e+003	6.524290e+000	3.524290e+000	1.820188e-006	4.329122e-006	0.000000e+000	2.291885e-006
2.351351479297440e-009	5.696685e-004	1.000000e+000	1.687978e+003	6.534640e+000	3.534640e+000	1.817817e-006	4.316160e-006	0.000000e+000	2.203315e-006
2.357632298973567e-009	5.782104e-004	1.000000e+000	1.694012e+003	6.544104e+000	3.544104e+000	1.815648e-006	4.304304e-006	0.000000e+000	2.117896e-006
2.363913118649693e-009	5.864373e-004	1.000000e+000	1.698762e+003	6.552683e+000	3.552683e+000	1.813679e-006	4.293554e-006	0.000000e+000	2.035627e-006
2.370193938325819e-009	5.943492e-004	1.000000e+000	1.702228e+003	6.560375e+000	3.560375e+000	1.811912e-006	4.283908e-006	0.000000e+000	1.956508e-006
2.376474758001946e-009	6.019460e-004	1.000000e+000	1.704410e+003	6.567182e+000	3.567182e+000	1.810346e-006	4.275368e-006	0.000000e+000	1.880540e-006
2.382755577678072e-009	6.092279e-004	1.000000e+000	1.705308e+003	6.573103e+000	3.573103e+000	1.808982e-006	4.267933e-006	0.000000e+000	1.807722e-006
2.382825770419356e-009	6.093073e-004	1.000000e+000	1.705308e+003	6.573167e+000	3.573167e+000	1.808967e-006	4.267853e-006	0.000000e+000	1.806927e-006
2.382895942036643e-009	6.093867e-004	1.000000e+000	1.705308e+003	6.573231e+000	3.573231e+000	1.808952e-006	4.267773e-006	0.000000e+000	1.806133e-006
2.382969845921402e-009	6.094703e-004	1.000000e+000	1.705307e+003	6.573298e+000	3.573298e+000	1.808937e-006	4.267688e-006	0.000000e+000	1.805297e-006
2.383060024775929e-009	6.095722e-004	1.000000e+000	1.705306e+003	6.573380e+000	3.573379e+000	1.808918e-006	4.267586e-006	0.000000e+000	1.804278e-006
2.383160024775930e-009	6.096851e-004	1.000000e+000	1.705304e+003	6.573470e+000	3.573470e+000	1.808897e-006	4.267472e-006	0.000000e+000	1.803149e-006
2.383260024775930e-009	6.097980e-004	1.000000e+000	1.705302e+003	6.573560e+000	3.573560e+000	1.808876e-006	4.267359e-006	0.000000e+000	1.802020e-006
2.383360024775930e-009	6.099108e-004	1.000000e+000	1.705298e+003	6.573650e+000	3.573650e+000	1.808855e-006	4.267246e-006	0.000000e+000	1.800892e-006
2.383460024775930e-009	6.100235e-004	1.000000e+000	1.705294e+003	6.573740e+000	3.573740e+000	1.808835e-006	4.267133e-006	0.000000e+000	1.799765e-006
2.383560024775930e-009	6.101361e-004	1.000000e+000	1.705289e+003	6.573830e+000	3.573830e+000	1.808814e-006	4.267020e-006	0.000000e+000	1.798639e-006
2.383660024775930e-009	6.102487e-004	1.000000e+000	1.705283e+003	6.573920e+000	3.573920e+000	1.808793e-006	4.266908e-006	0.000000e+000	1.797514e-006
2.383760024775930e-009	6.103611e-004	1.000000e+000	1.705277e+003	6.574009e+000	3.574009e+000	1.808773e-006	4.266795e-006	0.000000e+000	1.796389e-006
2.383860024775930e-009	6.104734e-004	1.000000e+000	1.705269e+003	6.574098e+000	3.574098e+000	1.808752e-006	4.266683e-006	0.000000e+000	1.795265e-006
2.383960024775930e-009	6.105858e-004	1.000000e+000	1.705261e+003	6.574187e+000	3.574188e+000	1.808732e-006	4.266572e-006	0.000000e+000	1.794142e-006
2.384060024775930e-009	6.106980e-004	1.000000e+000	1.705252e+003	6.574276e+000	3.574276e+000	1.808711e-006	4.266460e-006	0.000000e+000	1.793020e-006
2.384160024775930e-009	6.108101e-004	1.000000e+000	1.705243e+003	6.574365e+000	3.574365e+000	1.808691e-006	4.266348e-006	0.000000e+000	1.791899e-006
2.384260024775930e-009	6.109222e-004	1.000000e+000	1.705232e+003	6.574454e+000	3.574454e+000	1.808670e-006	4.266237e-006	0.000000e+000	1.790778e-006
2.384360024775930e-009	6.110341e-004	1.000000e+000	1.705221e+003	6.574542e+000	3.574542e+000	1.808650e-006	4.266126e-006	0.000000e+000	1.789659e-006
2.384460024775930e-009	6.111460e-004	1.000000e+000	1.705209e+003	6.574630e+000	3.574630e+000	1.808630e-006	4.266015e-006	0.000000e+000	1.788540e-006
2.384560024775930e-009	6.112579e-004	1.000000e+000	1.705196e+003	6.574718e+000	3.574718e+000	1.808609e-006	4.265905e-006	0.000000e+000	1.787422e-006
2.384660024775930e-009	6.113696e-004	1.000000e+000	1.705183e+003	6.574806e+000	3.574806e+000	1.808589e-006	4.265794e-006	0.000000e+000	1.786305e-006
2.384760024775930e-009	6.114811e-004	1.000000e+000	1.705168e+003	6.574894e+000	3.574894e+000	1.808569e-006	4.265684e-006	0.000000e+000	1.785188e-006
2.384960024775930e-009	6.117042e-004	1.000000e+000	1.705137e+003	6.575069e+000	3.575069e+000	1.808529e-006	4.265465e-006	0.000000e+000	1.782958e-006
2.385160024775930e-009	6.119269e-004	1.000000e+000	1.705103e+003	6.575243e+000	3.575243e+000	1.808488e-006	4.265245e-006	0.000000e+000	1.780731e-006
2.385360024775930e-009	6.121492e-004	1.000000e+000	1.705065e+003	6.575417e+000	3.575417e+000	1.808448e-006	4.265028e-006	0.000000e+000	1.778507e-006
2.385560024775930e-009	6.123713e-004	1.000000e+000	1.705025e+003	6.575590e+000	3.575590e+000	1.808409e-006	4.264810e-006	0.000000e+000	1.776287e-006
2.385760024775930e-009	6.125930e-004	1.000000e+000	1.704981e+003	6.575762e+000	3.575763e+000	1.808369e-006	4.264594e-006	0.000000e+000	1.774070e-006
2.386060024775930e-009	6.129249e-004	1.000000e+000	1.704909e+003	6.576020e+000	3.576020e+000	1.808310e-006	4.264271e-006	0.000000e+000	1.770751e-006
2.386360024775930e-009	6.132561e-004	1.000000e+000	1.704830e+003	6.576275e+000	3.576275e+000	1.808251e-006	4.263950e-006	0.000000e+000	1.767439e-006
2.386660024775931e-009	6.135866e-004	1.000000e+000	1.704744e+003	6.576530e+000	3.576530e+000	1.808192e-006	4.263631e-006	0.000000e+000	1.764134e-006
2.386960024775931e-009	6.139163e-004	1.000000e+000	1.704650e+003	6.576782e+000	3.576782e+000	1.808134e-006	4.263314e-006	0.000000e+000	1.760837e-006
2.387888596204503e-009	6.149322e-004	1.000000e+000	1.704317e+003	6.577555e+000	3.577555e+000	1.807956e-006	4.262344e-006	0.000000e+000	1.750679e-006
2.388817167633074e-009	6.159408e-004	1.000000e+000	1.703910e+003	6.578314e+000	3.578314e+000	1.807781e-006	4.261391e-006	0.000000e+000	1.740592e-006
2.389745739061646e-009	6.169422e-004	1.000000e+000	1.703430e+003	6.579059e+000	3.579059e+000	1.807609e-006	4.260455e-006	0.000000e+000	1.730578e-006
