time	V(vout1)	V(u1:n_state)	V(u1:r_hs)	V(u1:tsub)	V(u1:ttherm)	I(u1:B_ir)	I(u1:B_isw)	I(u1:B_ph)	abs(I(u1:L_kinetic))
0.000000000000000e+000	2.168404e-019	0.000000e+000	0.000000e+000	3.000000e+000	3.426079e-015	2.500000e-006	7.920766e-006	0.000000e+000	7.900000e-006
9.937273054536057e-011	-4.440771e-014	0.000000e+000	0.000000e+000	3.000000e+000	2.220037e-015	2.500000e-006	7.920766e-006	0.000000e+000	7.900000e-006
2.017727305453655e-010	-4.290741e-014	0.000000e+000	0.000000e+000	3.000000e+000	2.220037e-015	2.500000e-006	7.920766e-006	0.000000e+000	7.900000e-006
3.041727305453520e-010	-4.155160e-014	0.000000e+000	0.000000e+000	3.000000e+000	2.220037e-015	2.500000e-006	7.920766e-006	0.000000e+000	7.900000e-006
4.065727305453305e-010	-4.019778e-014	0.000000e+000	0.000000e+000	3.000000e+000	2.220037e-015	2.500000e-006	7.920766e-006	0.000000e+000	7.900000e-006
5.089727305453313e-010	-3.884204e-014	0.000000e+000	0.000000e+000	3.000000e+000	2.220037e-015	2.500000e-006	7.920766e-006	0.000000e+000	7.900000e-006
6.113727305453628e-010	-3.749267e-014	0.000000e+000	0.000000e+000	3.000000e+000	2.220037e-015	2.500000e-006	7.920766e-006	0.000000e+000	7.900000e-006
7.137727305453942e-010	-3.613054e-014	0.000000e+000	0.000000e+000	3.000000e+000	2.220037e-015	2.500000e-006	7.920766e-006	0.000000e+000	7.900000e-006
8.161727305454256e-010	-3.478278e-014	0.000000e+000	0.000000e+000	3.000000e+000	2.220037e-015	2.500000e-006	7.920766e-006	0.000000e+000	7.900000e-006
9.185727305454570e-010	-3.342670e-014	0.000000e+000	0.000000e+000	3.000000e+000	2.220037e-015	2.500000e-006	7.920766e-006	0.000000e+000	7.900000e-006
1.020972730545488e-009	-3.207029e-014	0.000000e+000	0.000000e+000	3.000000e+000	2.220037e-015	2.500000e-006	7.920766e-006	0.000000e+000	7.900000e-006
1.123372730545520e-009	-3.091927e-014	0.000000e+000	0.000000e+000	3.000000e+000	2.220037e-015	2.500000e-006	7.920766e-006	0.000000e+000	7.900000e-006
1.225772730545551e-009	-3.006667e-014	0.000000e+000	0.000000e+000	3.000000e+000	2.220037e-015	2.500000e-006	7.920766e-006	0.000000e+000	7.900000e-006
1.328172730545583e-009	-2.918776e-014	0.000000e+000	0.000000e+000	3.000000e+000	2.220037e-015	2.500000e-006	7.920766e-006	0.000000e+000	7.900000e-006
1.430572730545614e-009	-2.830125e-014	0.000000e+000	0.000000e+000	3.000000e+000	2.220037e-015	2.500000e-006	7.920766e-006	0.000000e+000	7.900000e-006
1.532972730545645e-009	-2.742096e-014	0.000000e+000	0.000000e+000	3.000000e+000	2.220037e-015	2.500000e-006	7.920766e-006	0.000000e+000	7.900000e-006
1.635372730545677e-009	-2.654392e-014	0.000000e+000	0.000000e+000	3.000000e+000	2.220037e-015	2.500000e-006	7.920766e-006	0.000000e+000	7.900000e-006
1.737772730545708e-009	-2.566666e-014	0.000000e+000	0.000000e+000	3.000000e+000	2.220037e-015	2.500000e-006	7.920766e-006	0.000000e+000	7.900000e-006
1.840172730545740e-009	-2.480024e-014	0.000000e+000	0.000000e+000	3.000000e+000	2.220037e-015	2.500000e-006	7.920766e-006	0.000000e+000	7.900000e-006
1.942572730545771e-009	-2.392860e-014	0.000000e+000	0.000000e+000	3.000000e+000	2.220037e-015	2.500000e-006	7.920766e-006	0.000000e+000	7.900000e-006
2.000000000000000e-009	-2.343014e-014	0.000000e+000	0.000000e+000	3.000000e+000	1.332259e-015	2.500000e-006	7.920766e-006	0.000000e+000	7.900000e-006
2.000000233380893e-009	1.310091e-007	0.000000e+000	0.000000e+000	3.002565e+000	2.565399e-003	2.499293e-006	7.917776e-006	2.990287e-006	7.898992e-006
2.000000700142679e-009	5.511097e-007	0.000000e+000	0.000000e+000	3.017725e+000	1.772534e-002	2.497032e-006	7.908198e-006	8.970860e-006	7.895761e-006
2.000000761039040e-009	6.188968e-007	0.000000e+000	0.000000e+000	3.019871e+000	1.987061e-002	2.496668e-006	7.906654e-006	9.751119e-006	7.895239e-006
2.000000882831763e-009	7.833893e-007	0.000000e+000	0.000000e+000	3.024823e+000	2.482319e-002	2.495788e-006	7.902914e-006	1.131164e-005	7.893974e-006
2.000001181696887e-009	1.252808e-006	0.000000e+000	0.000000e+000	3.040247e+000	4.024724e-002	2.493283e-006	7.892253e-006	1.514097e-005	7.890363e-006
2.000001254146767e-009	1.379137e-006	0.000000e+000	0.000000e+000	3.044266e+000	4.426633e-002	2.492611e-006	7.889390e-006	1.606926e-005	7.889391e-006
2.000001254146868e-009	1.379137e-006	2.500000e-001	0.000000e+000	3.044266e+000	4.426634e-002	2.492611e-006	7.889390e-006	1.606926e-005	7.889391e-006
2.000001254146968e-009	1.379137e-006	6.666667e-001	2.722766e-010	3.044266e+000	4.426634e-002	2.492611e-006	7.889390e-006	1.606926e-005	7.889391e-006
2.000001254147168e-009	1.379138e-006	1.000000e+000	1.525237e-009	3.044266e+000	4.426635e-002	2.492611e-006	7.889390e-006	1.606927e-005	7.889391e-006
2.000001254147568e-009	1.379138e-006	1.000000e+000	4.247516e-009	3.044266e+000	4.426635e-002	2.492611e-006	7.889390e-006	1.606927e-005	7.889391e-006
2.000001454762709e-009	1.513626e-006	1.000000e+000	1.311066e-003	3.048342e+000	4.834171e-002	2.491897e-006	7.886342e-006	1.863973e-005	7.888356e-006
2.000001655377851e-009	1.670387e-006	1.000000e+000	2.622495e-003	3.053098e+000	5.309795e-002	2.491068e-006	7.882797e-006	2.121020e-005	7.887151e-006
2.000001855992992e-009	1.849421e-006	1.000000e+000	3.934290e-003	3.058535e+000	5.853508e-002	2.490125e-006	7.878754e-006	2.378066e-005	7.885774e-006
2.000002056608134e-009	2.050728e-006	1.000000e+000	5.246452e-003	3.064653e+000	6.465308e-002	2.489068e-006	7.874215e-006	2.635112e-005	7.884225e-006
2.000002257223275e-009	2.274308e-006	1.000000e+000	6.558981e-003	3.071452e+000	7.145197e-002	2.487897e-006	7.869179e-006	2.892158e-005	7.882505e-006
2.000002457838417e-009	2.520162e-006	1.000000e+000	7.871876e-003	3.078932e+000	7.893174e-002	2.486611e-006	7.863646e-006	3.149205e-005	7.880614e-006
2.000002658453558e-009	2.788288e-006	1.000000e+000	9.185138e-003	3.087092e+000	8.709239e-002	2.485212e-006	7.857616e-006	3.406251e-005	7.878552e-006
2.000003341205352e-009	3.810036e-006	1.000000e+000	1.365814e-002	3.118622e+000	1.186219e-001	2.479928e-006	7.834738e-006	4.281054e-005	7.870693e-006
2.000003984694243e-009	4.959804e-006	1.000000e+000	1.787972e-002	3.153415e+000	1.534148e-001	2.474063e-006	7.809155e-006	5.105550e-005	7.861848e-006
2.000004692196397e-009	6.433098e-006	1.000000e+000	2.252880e-002	3.197430e+000	1.974302e-001	2.466666e-006	7.776617e-006	6.012066e-005	7.850515e-006
2.000005351377612e-009	7.999733e-006	1.000000e+000	2.686832e-002	3.243098e+000	2.430975e-001	2.458942e-006	7.742317e-006	6.856668e-005	7.838464e-006
2.000006056058746e-009	9.882122e-006	1.000000e+000	3.151680e-002	3.296827e+000	2.968267e-001	2.449844e-006	7.701506e-006	7.759569e-005	7.823984e-006
2.000006725466448e-009	1.186572e-005	1.000000e+000	3.594222e-002	3.351923e+000	3.519225e-001	2.440463e-006	7.658963e-006	8.617275e-005	7.808725e-006
2.000007427772677e-009	1.415169e-005	1.000000e+000	4.059594e-002	3.413777e+000	4.137768e-001	2.429899e-006	7.610515e-006	9.517133e-005	7.791141e-006
2.000008105077009e-009	1.655242e-005	1.000000e+000	4.509490e-002	3.476823e+000	4.768229e-001	2.419074e-006	7.560287e-006	1.038496e-004	7.772674e-006
2.000008375780293e-009	1.755806e-005	1.000000e+000	4.689550e-002	3.503040e+000	5.030404e-001	2.414592e-006	7.539370e-006	1.073181e-004	7.764938e-006
2.000008646483577e-009	1.859207e-005	1.000000e+000	4.869799e-002	3.529584e+000	5.295844e-001	2.410039e-006	7.518009e-006	1.107866e-004	7.756984e-006
2.000008917186862e-009	1.965447e-005	1.000000e+000	5.050237e-002	3.556455e+000	5.564549e-001	2.405416e-006	7.496205e-006	1.142551e-004	7.748812e-006
2.000009187890147e-009	2.074526e-005	1.000000e+000	5.230864e-002	3.583652e+000	5.836520e-001	2.400721e-006	7.473956e-006	1.177235e-004	7.740421e-006
2.000009458593431e-009	2.186443e-005	1.000000e+000	5.411680e-002	3.611176e+000	6.111756e-001	2.395955e-006	7.451264e-006	1.211920e-004	7.731812e-006
2.000009729296716e-009	2.301199e-005	1.000000e+000	5.592685e-002	3.639026e+000	6.390257e-001	2.391118e-006	7.428128e-006	1.246605e-004	7.722985e-006
2.000010000000000e-009	2.418793e-005	1.000000e+000	5.773879e-002	3.667202e+000	6.672024e-001	2.386210e-006	7.404549e-006	1.281290e-004	7.713939e-006
2.000010524368775e-009	2.648573e-005	1.000000e+000	6.125438e-002	3.721044e+000	7.210439e-001	2.376791e-006	7.358958e-006	1.278168e-004	7.696264e-006
2.000011191508304e-009	2.920008e-005	1.000000e+000	6.573950e-002	3.782652e+000	7.826518e-001	2.366036e-006	7.306173e-006	1.192688e-004	7.675384e-006
2.000011858647833e-009	3.171474e-005	1.000000e+000	7.023122e-002	3.838942e+000	8.389418e-001	2.356175e-006	7.257591e-006	1.107208e-004	7.656040e-006
2.000012525787362e-009	3.402970e-005	1.000000e+000	7.472954e-002	3.889914e+000	8.899139e-001	2.347209e-006	7.213212e-006	1.021728e-004	7.638232e-006
2.000013192926891e-009	3.614496e-005	1.000000e+000	7.923444e-002	3.935568e+000	9.355680e-001	2.339136e-006	7.173036e-006	9.362482e-005	7.621961e-006
2.000013860066420e-009	3.806053e-005	1.000000e+000	8.374594e-002	3.975904e+000	9.759041e-001	2.331958e-006	7.137063e-006	8.507683e-005	7.607226e-006
2.000014527205949e-009	3.977641e-005	1.000000e+000	8.826403e-002	4.010922e+000	1.010922e+000	2.325673e-006	7.105294e-006	7.652883e-005	7.594027e-006
2.000015194345478e-009	4.129258e-005	1.000000e+000	9.278872e-002	4.040623e+000	1.040622e+000	2.320283e-006	7.077728e-006	6.798084e-005	7.582365e-006
2.000016563388847e-009	4.382786e-005	1.000000e+000	1.020818e-001	4.090858e+000	1.090858e+000	2.311234e-006	7.031583e-006	5.043942e-005	7.562863e-006
2.000017932859370e-009	4.555422e-005	1.000000e+000	1.113897e-001	4.124431e+000	1.124431e+000	2.305167e-006	7.000484e-006	3.289252e-005	7.549583e-006
2.000019301945683e-009	4.648630e-005	1.000000e+000	1.207020e-001	4.142021e+000	1.142021e+000	2.301923e-006	6.983800e-006	1.535055e-005	7.542413e-006
2.000020500000000e-009	4.667262e-005	1.000000e+000	1.288535e-001	4.144950e+000	1.144950e+000	2.301277e-006	6.980474e-006	1.058778e-015	7.540980e-006
2.004706746397985e-009	4.689267e-005	1.000000e+000	3.203433e+001	4.146489e+000	1.146489e+000	2.301006e-006	6.979138e-006	5.840074e-016	7.539287e-006
2.009392992795970e-009	4.771984e-005	1.000000e+000	6.391299e+001	4.153121e+000	1.153121e+000	2.299806e-006	6.972959e-006	2.170759e-016	7.532925e-006
2.014079239193955e-009	4.915410e-005	1.000000e+000	9.576484e+001	4.164845e+000	1.164845e+000	2.297676e-006	6.961938e-006	-4.201687e-017	7.521892e-006
2.018765485591940e-009	5.119548e-005	1.000000e+000	1.275899e+002	4.181662e+000	1.181662e+000	2.294617e-006	6.946073e-006	-1.932708e-016	7.506189e-006
2.023451731989925e-009	5.384395e-005	1.000000e+000	1.593881e+002	4.203570e+000	1.203570e+000	2.290629e-006	6.925367e-006	-2.366860e-016	7.485816e-006
2.028137978387909e-009	5.709953e-005	1.000000e+000	1.911595e+002	4.230571e+000	1.230571e+000	2.285711e-006	6.899817e-006	-1.722624e-016	7.460773e-006
2.032824224785894e-009	6.096222e-005	1.000000e+000	2.229041e+002	4.262664e+000	1.262664e+000	2.279864e-006	6.869425e-006	0.000000e+000	7.431060e-006
2.032915930920118e-009	6.104280e-005	1.000000e+000	2.235244e+002	4.263324e+000	1.263324e+000	2.279743e-006	6.868795e-006	0.000000e+000	7.430440e-006
2.039969800615532e-009	6.807873e-005	1.000000e+000	2.712540e+002	4.321723e+000	1.321723e+000	2.269090e-006	6.813196e-006	0.000000e+000	7.376317e-006
2.047023670310947e-009	7.609273e-005	1.000000e+000	3.187389e+002	4.385275e+000	1.385275e+000	2.257390e-006	6.751533e-006	0.000000e+000	7.314671e-006
2.054077540006362e-009	8.508478e-005	1.000000e+000	3.659789e+002	4.453981e+000	1.453981e+000	2.244645e-006	6.683807e-006	0.000000e+000	7.245502e-006
2.061131409701777e-009	9.505489e-005	1.000000e+000	4.129741e+002	4.527841e+000	1.527841e+000	2.230853e-006	6.610019e-006	0.000000e+000	7.168809e-006
2.068185279397192e-009	1.060031e-004	1.000000e+000	4.597245e+002	4.606854e+000	1.606854e+000	2.216016e-006	6.530168e-006	0.000000e+000	7.084592e-006
2.075239149092607e-009	1.179293e-004	1.000000e+000	5.062301e+002	4.691020e+000	1.691020e+000	2.200133e-006	6.444254e-006	0.000000e+000	6.992852e-006
2.082293018788022e-009	1.308336e-004	1.000000e+000	5.524908e+002	4.780340e+000	1.780340e+000	2.183205e-006	6.352277e-006	0.000000e+000	6.893588e-006
2.086560326906695e-009	1.388917e-004	1.000000e+000	5.802669e+002	4.833791e+000	1.833791e+000	2.172981e-006	6.296315e-006	0.000000e+000	6.831602e-006
2.090827635025368e-009	1.471412e-004	1.000000e+000	6.078782e+002	4.887212e+000	1.887212e+000	2.162713e-006	6.239949e-006	0.000000e+000	6.768145e-006
2.095094943144042e-009	1.555819e-004	1.000000e+000	6.353249e+002	4.940603e+000	1.940603e+000	2.152401e-006	6.183178e-006	0.000000e+000	6.703216e-006
2.099362251262715e-009	1.642139e-004	1.000000e+000	6.626069e+002	4.993964e+000	1.993964e+000	2.142045e-006	6.126002e-006	0.000000e+000	6.636816e-006
2.103629559381388e-009	1.730372e-004	1.000000e+000	6.897242e+002	5.047296e+000	2.047296e+000	2.131645e-006	6.068423e-006	0.000000e+000	6.568944e-006
2.107896867500061e-009	1.820518e-004	1.000000e+000	7.166769e+002	5.100598e+000	2.100598e+000	2.121201e-006	6.010438e-006	0.000000e+000	6.499601e-006
2.112164175618735e-009	1.912577e-004	1.000000e+000	7.434648e+002	5.153870e+000	2.153869e+000	2.110713e-006	5.952049e-006	0.000000e+000	6.428787e-006
2.112235452258511e-009	1.914120e-004	1.000000e+000	7.439103e+002	5.154750e+000	2.154750e+000	2.110539e-006	5.951081e-006	0.000000e+000	6.427600e-006
2.122385621354422e-009	2.140293e-004	1.000000e+000	8.070296e+002	5.279952e+000	2.279952e+000	2.085607e-006	5.811520e-006	0.000000e+000	6.253620e-006
2.132535790450333e-009	2.369820e-004	1.000000e+000	8.686999e+002	5.400079e+000	2.400079e+000	2.061468e-006	5.676275e-006	0.000000e+000	6.077062e-006
2.142685959546244e-009	2.602698e-004	1.000000e+000	9.289214e+002	5.515132e+000	2.515132e+000	2.038120e-006	5.545345e-006	0.000000e+000	5.897925e-006
2.152836128642155e-009	2.838930e-004	1.000000e+000	9.876940e+002	5.625110e+000	2.625110e+000	2.015564e-006	5.418730e-006	0.000000e+000	5.716208e-006
2.162986297738066e-009	3.078514e-004	1.000000e+000	1.045018e+003	5.730014e+000	2.730014e+000	1.993800e-006	5.296431e-006	0.000000e+000	5.531912e-006
2.173136466833977e-009	3.321451e-004	1.000000e+000	1.100893e+003	5.829843e+000	2.829844e+000	1.972828e-006	5.178448e-006	0.000000e+000	5.345038e-006
2.183286635929888e-009	3.567741e-004	1.000000e+000	1.155318e+003	5.924599e+000	2.924599e+000	1.952648e-006	5.064780e-006	0.000000e+000	5.155583e-006
2.183354694522088e-009	3.569381e-004	1.000000e+000	1.155676e+003	5.925209e+000	2.925209e+000	1.952518e-006	5.064049e-006	0.000000e+000	5.154322e-006
2.193219353857128e-009	3.808217e-004	1.000000e+000	1.206818e+003	6.010515e+000	3.010515e+000	1.934164e-006	4.961145e-006	0.000000e+000	4.970602e-006
2.203084013192167e-009	4.046508e-004	1.000000e+000	1.255997e+003	6.090526e+000	3.090526e+000	1.916852e-006	4.864269e-006	0.000000e+000	4.787302e-006
2.212948672527206e-009	4.284254e-004	1.000000e+000	1.303212e+003	6.165240e+000	3.165240e+000	1.900581e-006	4.773421e-006	0.000000e+000	4.604420e-006
2.222813331862245e-009	4.521456e-004	1.000000e+000	1.348464e+003	6.234658e+000	3.234658e+000	1.885352e-006	4.688601e-006	0.000000e+000	4.421957e-006
2.232677991197285e-009	4.758113e-004	1.000000e+000	1.391752e+003	6.298780e+000	3.298781e+000	1.871163e-006	4.609810e-006	0.000000e+000	4.239913e-006
2.242542650532324e-009	4.994225e-004	1.000000e+000	1.433077e+003	6.357607e+000	3.357607e+000	1.858016e-006	4.537046e-006	0.000000e+000	4.058289e-006
2.252407309867363e-009	5.229792e-004	1.000000e+000	1.472438e+003	6.411137e+000	3.411136e+000	1.845911e-006	4.470311e-006	0.000000e+000	3.877083e-006
2.252475507385391e-009	5.231407e-004	1.000000e+000	1.472701e+003	6.411492e+000	3.411492e+000	1.845830e-006	4.469869e-006	0.000000e+000	3.875841e-006
2.264216841270015e-009	5.511044e-004	1.000000e+000	1.516614e+003	6.468400e+000	3.468400e+000	1.832894e-006	4.398854e-006	0.000000e+000	3.660735e-006
2.275958175154639e-009	5.783309e-004	1.000000e+000	1.557026e+003	6.519904e+000	3.519904e+000	1.821152e-006	4.334504e-006	0.000000e+000	3.451301e-006
2.287699509039263e-009	6.048203e-004	1.000000e+000	1.593937e+003	6.566003e+000	3.566003e+000	1.810606e-006	4.276818e-006	0.000000e+000	3.247537e-006
2.299440842923887e-009	6.305724e-004	1.000000e+000	1.627347e+003	6.606698e+000	3.606698e+000	1.801254e-006	4.225797e-006	0.000000e+000	3.049444e-006
2.311182176808511e-009	6.555873e-004	1.000000e+000	1.657256e+003	6.641988e+000	3.641988e+000	1.793096e-006	4.181440e-006	0.000000e+000	2.857021e-006
2.322923510693135e-009	6.798650e-004	1.000000e+000	1.683664e+003	6.671873e+000	3.671873e+000	1.786134e-006	4.143749e-006	0.000000e+000	2.670269e-006
2.334664844577759e-009	7.034055e-004	1.000000e+000	1.706571e+003	6.696354e+000	3.696354e+000	1.780367e-006	4.112721e-006	0.000000e+000	2.489188e-006
2.334764844577759e-009	7.035979e-004	1.000000e+000	1.706748e+003	6.696555e+000	3.696555e+000	1.780320e-006	4.112468e-006	0.000000e+000	2.487708e-006
2.342949858296318e-009	7.190886e-004	1.000000e+000	1.720464e+003	6.711714e+000	3.711714e+000	1.776764e-006	4.093305e-006	0.000000e+000	2.368549e-006
2.351134872014877e-009	7.339147e-004	1.000000e+000	1.732132e+003	6.725475e+000	3.725475e+000	1.773534e-006	4.075905e-006	0.000000e+000	2.254502e-006
2.359319885733436e-009	7.480762e-004	1.000000e+000	1.741752e+003	6.737838e+000	3.737838e+000	1.770630e-006	4.060268e-006	0.000000e+000	2.145568e-006
2.367504899451994e-009	7.615731e-004	1.000000e+000	1.749323e+003	6.748802e+000	3.748802e+000	1.768051e-006	4.046395e-006	0.000000e+000	2.041745e-006
2.375689913170553e-009	7.744054e-004	1.000000e+000	1.754847e+003	6.758367e+000	3.758367e+000	1.765797e-006	4.034285e-006	0.000000e+000	1.943035e-006
2.383874926889113e-009	7.865731e-004	1.000000e+000	1.758323e+003	6.766534e+000	3.766534e+000	1.763869e-006	4.023939e-006	0.000000e+000	1.849437e-006
2.392059940607672e-009	7.980763e-004	1.000000e+000	1.759752e+003	6.773302e+000	3.773302e+000	1.762266e-006	4.015355e-006	0.000000e+000	1.760952e-006
2.392127736760985e-009	7.981685e-004	1.000000e+000	1.759752e+003	6.773356e+000	3.773356e+000	1.762253e-006	4.015287e-006	0.000000e+000	1.760243e-006
2.392195516197354e-009	7.982606e-004	1.000000e+000	1.759752e+003	6.773410e+000	3.773410e+000	1.762240e-006	4.015218e-006	0.000000e+000	1.759534e-006
2.392267391039342e-009	7.983582e-004	1.000000e+000	1.759751e+003	6.773468e+000	3.773467e+000	1.762227e-006	4.015145e-006	0.000000e+000	1.758783e-006
2.392353436479945e-009	7.984751e-004	1.000000e+000	1.759750e+003	6.773536e+000	3.773536e+000	1.762211e-006	4.015059e-006	0.000000e+000	1.757884e-006
2.392453436479945e-009	7.986107e-004	1.000000e+000	1.759748e+003	6.773615e+000	3.773615e+000	1.762192e-006	4.014958e-006	0.000000e+000	1.756841e-006
2.392553436479945e-009	7.987462e-004	1.000000e+000	1.759746e+003	6.773695e+000	3.773695e+000	1.762173e-006	4.014857e-006	0.000000e+000	1.755798e-006
2.392653436479945e-009	7.988818e-004	1.000000e+000	1.759742e+003	6.773774e+000	3.773774e+000	1.762155e-006	4.014757e-006	0.000000e+000	1.754756e-006
2.392753436479945e-009	7.990171e-004	1.000000e+000	1.759739e+003	6.773853e+000	3.773853e+000	1.762136e-006	4.014657e-006	0.000000e+000	1.753715e-006
2.392853436479945e-009	7.991524e-004	1.000000e+000	1.759734e+003	6.773932e+000	3.773932e+000	1.762117e-006	4.014557e-006	0.000000e+000	1.752674e-006
2.392953436479945e-009	7.992876e-004	1.000000e+000	1.759728e+003	6.774010e+000	3.774010e+000	1.762099e-006	4.014457e-006	0.000000e+000	1.751634e-006
2.393053436479945e-009	7.994226e-004	1.000000e+000	1.759722e+003	6.774089e+000	3.774089e+000	1.762080e-006	4.014358e-006	0.000000e+000	1.750596e-006
2.393153436479945e-009	7.995575e-004	1.000000e+000	1.759715e+003	6.774168e+000	3.774167e+000	1.762061e-006	4.014258e-006	0.000000e+000	1.749557e-006
2.393253436479945e-009	7.996924e-004	1.000000e+000	1.759707e+003	6.774246e+000	3.774246e+000	1.762043e-006	4.014159e-006	0.000000e+000	1.748520e-006
